Freq.	V(n011)
1.00000000000000e+000	9.97598140066661e-001    -1.08920179776581e-002
1.00230523807790e+000	9.97587578787734e-001    -1.09147622874017e-002
1.00461579027840e+000	9.97576961868365e-001    -1.09375937290789e-002
1.00693166885180e+000	9.97566309359956e-001    -1.09604196815587e-002
1.00925288607668e+000	9.97555606839275e-001    -1.09833012602563e-002
1.01157945425990e+000	9.97544867527675e-001    -1.10061936350694e-002
1.01391138573668e+000	9.97534067796885e-001    -1.10291875636081e-002
1.01624869287070e+000	9.97523240614051e-001    -1.10521455280546e-002
1.01859138805412e+000	9.97512351445975e-001    -1.10752041416672e-002
1.02093948370768e+000	9.97501428079292e-001    -1.10982574376518e-002
1.02329299228075e+000	9.97490463832345e-001    -1.11213362006493e-002
1.02565192625141e+000	9.97479440807143e-001    -1.11444998808436e-002
1.02801629812647e+000	9.97468374077880e-001    -1.11676875048308e-002
1.03038612044162e+000	9.97457274105726e-001    -1.11908699663461e-002
1.03276140576140e+000	9.97446106329485e-001    -1.12141667894985e-002
1.03514216667934e+000	9.97434912461061e-001    -1.12374276572151e-002
1.03752841581801e+000	9.97423659133470e-001    -1.12607726780086e-002
1.03992016582906e+000	9.97412369613084e-001    -1.12841107673868e-002
1.04231742939330e+000	9.97401029714201e-001    -1.13075031333493e-002
1.04472021922080e+000	9.97389638643263e-001    -1.13309493363467e-002
1.04712854805090e+000	9.97378199320911e-001    -1.13544336304804e-002
1.04954242865232e+000	9.97366721707878e-001    -1.13779266798750e-002
1.05196187382322e+000	9.97355191273509e-001    -1.14014724630374e-002
1.05438689639126e+000	9.97343609179914e-001    -1.14250714720420e-002
1.05681750921366e+000	9.97331985865238e-001    -1.14486775284399e-002
1.05925372517729e+000	9.97320314420450e-001    -1.14723212992813e-002
1.06169555719872e+000	9.97308587217739e-001    -1.14960330646428e-002
1.06414301822431e+000	9.97296818488509e-001    -1.15197514670360e-002
1.06659612123026e+000	9.97284996853218e-001    -1.15435220065488e-002
1.06905487922266e+000	9.97273121052022e-001    -1.15673610619863e-002
1.07151930523761e+000	9.97261205882911e-001    -1.15911904394675e-002
1.07398941234124e+000	9.97249250161017e-001    -1.16150265762637e-002
1.07646521362983e+000	9.97237225195333e-001    -1.16389746840777e-002
1.07894672222983e+000	9.97225158775718e-001    -1.16629288802644e-002
1.08143395129794e+000	9.97213044528817e-001    -1.16869201156239e-002
1.08392691402120e+000	9.97200881484893e-001    -1.17109306559115e-002
1.08642562361706e+000	9.97188662055997e-001    -1.17350079488430e-002
1.08893009333343e+000	9.97176398319041e-001    -1.17591066175868e-002
1.09144033644876e+000	9.97164078420977e-001    -1.17832548106024e-002
1.09395636627209e+000	9.97151711960168e-001    -1.18074230582605e-002
1.09647819614318e+000	9.97139295669888e-001    -1.18316267027589e-002
1.09900583943252e+000	9.97126833301127e-001    -1.18558504646984e-002
1.10153930954141e+000	9.97114308571536e-001    -1.18801544300989e-002
1.10407861990207e+000	9.97101736170742e-001    -1.19044774692564e-002
1.10662378397766e+000	9.97089120594445e-001    -1.19288046236703e-002
1.10917481526240e+000	9.97076439342294e-001    -1.19532271676648e-002
1.11173172728159e+000	9.97063718611761e-001    -1.19776383607134e-002
1.11429453359173e+000	9.97050944533009e-001    -1.20020824278120e-002
1.11686324778056e+000	9.97038104690974e-001    -1.20266214915339e-002
1.11943788346715e+000	9.97025231931593e-001    -1.20511179590544e-002
1.12201845430196e+000	9.97012296399974e-001    -1.20756936100437e-002
1.12460497396692e+000	9.96999305148374e-001    -1.21003176264649e-002
1.12719745617551e+000	9.96986264568618e-001    -1.21249588908461e-002
1.12979591467280e+000	9.96973173038056e-001    -1.21496336211251e-002
1.13240036323556e+000	9.96960028016000e-001    -1.21743403691566e-002
1.13501081567231e+000	9.96946823498230e-001    -1.21991102652318e-002
1.13762728582343e+000	9.96933572183120e-001    -1.22238810783128e-002
1.14024978756117e+000	9.96920259548424e-001    -1.22487310728916e-002
1.14287833478977e+000	9.96906893465347e-001    -1.22735954086936e-002
1.14551294144553e+000	9.96893485500414e-001    -1.22984629765523e-002
1.14815362149688e+000	9.96880012006639e-001    -1.23234071171445e-002
1.15080038894443e+000	9.96866483500985e-001    -1.23483816307029e-002
1.15345325782109e+000	9.96852910037513e-001    -1.23733573782829e-002
1.15611224219210e+000	9.96839267618559e-001    -1.23984247399230e-002
1.15877735615512e+000	9.96825577926749e-001    -1.24234918337882e-002
1.16144861384034e+000	9.96811834880340e-001    -1.24485897422467e-002
1.16412602941049e+000	9.96798029516896e-001    -1.24737480000901e-002
1.16680961706096e+000	9.96784174976084e-001    -1.24989218546415e-002
1.16949939101987e+000	9.96770263921918e-001    -1.25241244338134e-002
1.17219536554813e+000	9.96756294965576e-001    -1.25493721309199e-002
1.17489755493953e+000	9.96742264571303e-001    -1.25746801854295e-002
1.17760597352080e+000	9.96728181042274e-001    -1.26000011474780e-002
1.18032063565173e+000	9.96714051233404e-001    -1.26253214225682e-002
1.18304155572516e+000	9.96699842421231e-001    -1.26507611177096e-002
1.18576874816716e+000	9.96685595008954e-001    -1.26761695309805e-002
1.18850222743702e+000	9.96671274403375e-001    -1.27016657140124e-002
1.19124200802737e+000	9.96656911259556e-001    -1.27271454744279e-002
1.19398810446427e+000	9.96642490908468e-001    -1.27526524159619e-002
1.19674053130724e+000	9.96628008117537e-001    -1.27782181507667e-002
1.19949930314938e+000	9.96613468231802e-001    -1.28038108745796e-002
1.20226443461741e+000	9.96598863847732e-001    -1.28294609422357e-002
1.20503594037179e+000	9.96584211226731e-001    -1.28551080628397e-002
1.20781383510678e+000	9.96569486896768e-001    -1.28808428803148e-002
1.21059813355048e+000	9.96554712679207e-001    -1.29065735376398e-002
1.21338885046497e+000	9.96539868498755e-001    -1.29323752564231e-002
1.21618600064636e+000	9.96524986305406e-001    -1.29581446032253e-002
1.21898959892486e+000	9.96510032467223e-001    -1.29839837466711e-002
1.22179966016487e+000	9.96495022419123e-001    -1.30098493295721e-002
1.22461619926504e+000	9.96479941134157e-001    -1.30357846784115e-002
1.22743923115840e+000	9.96464816546045e-001    -1.30617014340707e-002
1.23026877081238e+000	9.96449619723564e-001    -1.30876871192982e-002
1.23310483322890e+000	9.96434362332469e-001    -1.31137135297652e-002
1.23594743344451e+000	9.96419049902721e-001    -1.31397489264338e-002
1.23879658653036e+000	9.96403672031398e-001    -1.31658393312041e-002
1.24165230759241e+000	9.96388229931277e-001    -1.31919679057572e-002
1.24451461177138e+000	9.96372735027168e-001    -1.32181063542564e-002
1.24738351424294e+000	9.96357180381841e-001    -1.32442678400838e-002
1.25025903021771e+000	9.96341558666764e-001    -1.32704828463011e-002
1.25314117494141e+000	9.96325874463229e-001    -1.32967364232708e-002
1.25602996369487e+000	9.96310125799410e-001    -1.33230272840812e-002
1.25892541179416e+000	9.96294323835432e-001    -1.33493269795091e-002
1.26182753459066e+000	9.96278452466117e-001    -1.33756781592936e-002
1.26473634747115e+000	9.96262517380871e-001    -1.34020665972385e-002
1.26765186585784e+000	9.96246527208944e-001    -1.34284623726857e-002
1.27057410520854e+000	9.96230472376367e-001    -1.34548945064271e-002
1.27350308101666e+000	9.96214345066249e-001    -1.34813931566360e-002
1.27643880881134e+000	9.96198156843299e-001    -1.35079126336036e-002
1.27938130415752e+000	9.96181913503099e-001    -1.35344387848426e-002
1.28233058265602e+000	9.96165606130355e-001    -1.35610010906515e-002
1.28528665994361e+000	9.96149228319376e-001    -1.35876129828151e-002
1.28824955169313e+000	9.96132785479739e-001    -1.36142600534759e-002
1.29121927361353e+000	9.96116287126027e-001    -1.36409129396430e-002
1.29419584144998e+000	9.96099707538697e-001    -1.36676433878975e-002
1.29717927098395e+000	9.96083069624242e-001    -1.36943951255481e-002
1.30016957803328e+000	9.96066378488314e-001    -1.37211360510730e-002
1.30316677845229e+000	9.96049607578437e-001    -1.37479549043413e-002
1.30617088813183e+000	9.96032774653582e-001    -1.37747922773779e-002
1.30918192299940e+000	9.96015885247287e-001    -1.38016338587398e-002
1.31219989901920e+000	9.95998920135666e-001    -1.38285378330575e-002
1.31522483219223e+000	9.95981893058757e-001    -1.38554598773562e-002
1.31825673855640e+000	9.95964799424028e-001    -1.38824144789673e-002
1.32129563418657e+000	9.95947639863443e-001    -1.39094018887237e-002
1.32434153519466e+000	9.95930411980109e-001    -1.39364204367884e-002
1.32739445772973e+000	9.95913116434720e-001    -1.39634703230456e-002
1.33045441797808e+000	9.95895759913314e-001    -1.39905380518503e-002
1.33352143216332e+000	9.95878322184703e-001    -1.40176810644374e-002
1.33659551654643e+000	9.95860824803067e-001    -1.40448247022796e-002
1.33967668742593e+000	9.95843269590400e-001    -1.40719699941786e-002
1.34276496113786e+000	9.95825631241078e-001    -1.40991887845840e-002
1.34586035405594e+000	9.95807935988497e-001    -1.41264094816608e-002
1.34896288259164e+000	9.95790157314925e-001    -1.41537030881357e-002
1.35207256319427e+000	9.95772320390628e-001    -1.41809973704030e-002
1.35518941235103e+000	9.95754414389505e-001    -1.42083204443094e-002
1.35831344658715e+000	9.95736438806112e-001    -1.42356718096798e-002
1.36144468246594e+000	9.95718391561256e-001    -1.42630676533234e-002
1.36458313658892e+000	9.95700274500449e-001    -1.42904912481281e-002
1.36772882559584e+000	9.95682097998460e-001    -1.43179137570355e-002
1.37088176616484e+000	9.95663843301102e-001    -1.43453935983051e-002
1.37404197501251e+000	9.95645521979017e-001    -1.43728849766240e-002
1.37720946889394e+000	9.95627122954695e-001    -1.44004336302409e-002
1.38038426460288e+000	9.95608659022298e-001    -1.44279945691639e-002
1.38356637897177e+000	9.95590119911353e-001    -1.44555962830254e-002
1.38675582887188e+000	9.95571525528907e-001    -1.44831807477130e-002
1.38995263121334e+000	9.95552841192158e-001    -1.45108490790364e-002
1.39315680294529e+000	9.95534090375072e-001    -1.45385278300516e-002
1.39636836105593e+000	9.95515271742334e-001    -1.45662337394385e-002
1.39958732257261e+000	9.95496381327942e-001    -1.45939638906555e-002
1.40281370456195e+000	9.95477419015974e-001    -1.46217179997327e-002
1.40604752412990e+000	9.95458386642571e-001    -1.46494971297650e-002
1.40928879842186e+000	9.95439277781835e-001    -1.46773145005195e-002
1.41253754462274e+000	9.95420099028927e-001    -1.47051566066593e-002
1.41579377995707e+000	9.95400848346236e-001    -1.47330218026296e-002
1.41905752168908e+000	9.95381520831431e-001    -1.47609243789366e-002
1.42232878712281e+000	9.95362116720970e-001    -1.47888643125416e-002
1.42560759360218e+000	9.95342645976535e-001    -1.48168124411159e-002
1.42889395851109e+000	9.95323102865728e-001    -1.48447825418750e-002
1.43218789927353e+000	9.95303479196458e-001    -1.48728044744529e-002
1.43548943335364e+000	9.95283786615452e-001    -1.49008324214896e-002
1.43879857825583e+000	9.95264016926326e-001    -1.49288962210263e-002
1.44211535152486e+000	9.95244174472774e-001    -1.49569807884309e-002
1.44543977074592e+000	9.95224248991020e-001    -1.49851145963833e-002
1.44877185354475e+000	9.95204253278720e-001    -1.50132705257574e-002
1.45211161758773e+000	9.95184196413978e-001    -1.50414008805759e-002
1.45545908058195e+000	9.95164042690040e-001    -1.50696238634260e-002
1.45881426027534e+000	9.95143830807042e-001    -1.50978229326916e-002
1.46217717445671e+000	9.95123535726026e-001    -1.51260699792305e-002
1.46554784095590e+000	9.95103172117169e-001    -1.51543212413299e-002
1.46892627764385e+000	9.95082719758637e-001    -1.51826339987452e-002
1.47231250243271e+000	9.95062198280082e-001    -1.52109500740682e-002
1.47570653327588e+000	9.95041592730037e-001    -1.52393125422019e-002
1.47910838816819e+000	9.95020933200969e-001    -1.52676346873591e-002
1.48251808514594e+000	9.95000169910854e-001    -1.52960606539136e-002
1.48593564228699e+000	9.94979340153387e-001    -1.53244728238859e-002
1.48936107771090e+000	9.94958447451108e-001    -1.53528735732838e-002
1.49279440957898e+000	9.94937450555010e-001    -1.53813770729326e-002
1.49623565609442e+000	9.94916391947852e-001    -1.54098514707112e-002
1.49968483550236e+000	9.94895245495109e-001    -1.54383858509855e-002
1.50314196609001e+000	9.94874026366994e-001    -1.54669187242096e-002
1.50660706618673e+000	9.94852729209699e-001    -1.54954821565290e-002
1.51008015416413e+000	9.94831355787968e-001    -1.55240590415799e-002
1.51356124843619e+000	9.94809901352995e-001    -1.55526637332165e-002
1.51705036745932e+000	9.94788361538151e-001    -1.55813108556189e-002
1.52054752973248e+000	9.94766745970832e-001    -1.56099710425593e-002
1.52405275379728e+000	9.94745054561338e-001    -1.56386440005987e-002
1.52756605823806e+000	9.94723286052664e-001    -1.56673284679158e-002
1.53108746168202e+000	9.94701432565698e-001    -1.56960546343692e-002
1.53461698279928e+000	9.94679501775972e-001    -1.57247916637380e-002
1.53815464030302e+000	9.94657484192832e-001    -1.57535684595251e-002
1.54170045294954e+000	9.94635395069914e-001    -1.57823417533777e-002
1.54525443953840e+000	9.94613227071287e-001    -1.58111329889451e-002
1.54881661891247e+000	9.94590964240932e-001    -1.58399844242074e-002
1.55238700995807e+000	9.94568634420008e-001    -1.58688167338255e-002
1.55596563160506e+000	9.94546213913054e-001    -1.58976936018533e-002
1.55955250282694e+000	9.94523713346160e-001    -1.59265864221954e-002
1.56314764264094e+000	9.94501133859757e-001    -1.59554957844383e-002
1.56675107010813e+000	9.94478474974843e-001    -1.59844210503381e-002
1.57036280433354e+000	9.94455726789602e-001    -1.60133816456810e-002
1.57398286446620e+000	9.94432908640048e-001    -1.60423283281913e-002
1.57761126969933e+000	9.94409997011592e-001    -1.60713248287575e-002
1.58124803927037e+000	9.94386999205067e-001    -1.61003490857630e-002
1.58489319246110e+000	9.94363929046860e-001    -1.61293658247463e-002
1.58854674859776e+000	9.94340767286369e-001    -1.61584238640585e-002
1.59220872705115e+000	9.94317526575803e-001    -1.61874869328750e-002
1.59587914723672e+000	9.94294200163313e-001    -1.62165769774267e-002
1.59955802861465e+000	9.94270795876635e-001    -1.62456723448696e-002
1.60324539069002e+000	9.94247300659378e-001    -1.62747990788421e-002
1.60694125301286e+000	9.94223719474942e-001    -1.63039516803297e-002
1.61064563517825e+000	9.94200063878662e-001    -1.63330930538292e-002
1.61435855682647e+000	9.94176313803276e-001    -1.63622804943916e-002
1.61808003764305e+000	9.94152486959425e-001    -1.63914633814778e-002
1.62181009735891e+000	9.94128564232048e-001    -1.64206905383821e-002
1.62554875575047e+000	9.94104564576975e-001    -1.64499124475438e-002
1.62929603263970e+000	9.94080481190987e-001    -1.64791509474738e-002
1.63305194789432e+000	9.94056302690766e-001    -1.65084241297842e-002
1.63681652142779e+000	9.94032049565603e-001    -1.65376929963158e-002
1.64058977319952e+000	9.94007707346824e-001    -1.65669823714457e-002
1.64437172321491e+000	9.93983270581132e-001    -1.65963059137871e-002
1.64816239152549e+000	9.93958759681584e-001    -1.66256153104251e-002
1.65196179822900e+000	9.93934156108337e-001    -1.66549598489428e-002
1.65576996346951e+000	9.93909468162980e-001    -1.66843088906015e-002
1.65958690743754e+000	9.93884691179862e-001    -1.67136768066714e-002
1.66341265037015e+000	9.93859823998034e-001    -1.67430716402635e-002
1.66724721255104e+000	9.93834875803538e-001    -1.67724634871385e-002
1.67109061431069e+000	9.93809834823226e-001    -1.68018793525912e-002
1.67494287602642e+000	9.93784705752692e-001    -1.68313135857846e-002
1.67880401812254e+000	9.93759494008219e-001    -1.68607517562487e-002
1.68267406107045e+000	9.93734185710836e-001    -1.68902190313323e-002
1.68655302538872e+000	9.93708798469635e-001    -1.69196740573687e-002
1.69044093164324e+000	9.93683321405787e-001    -1.69491539356925e-002
1.69433780044731e+000	9.93657745915785e-001    -1.69786602484529e-002
1.69824365246172e+000	9.93632091481775e-001    -1.70081626529253e-002
1.70215850839493e+000	9.93606342096890e-001    -1.70376843723489e-002
1.70608238900310e+000	9.93580507335617e-001    -1.70672146502700e-002
1.71001531509027e+000	9.93554587046823e-001    -1.70967435848454e-002
1.71395730750840e+000	9.93528568541713e-001    -1.71263067182804e-002
1.71790838715757e+000	9.93502467192130e-001    -1.71558607242442e-002
1.72186857498599e+000	9.93476270709456e-001    -1.71854414759354e-002
1.72583789199018e+000	9.93449981384961e-001    -1.72150412281832e-002
1.72981635921508e+000	9.93423607849446e-001    -1.72446295408729e-002
1.73380399775412e+000	9.93397139830376e-001    -1.72742440776558e-002
1.73780082874935e+000	9.93370588385793e-001    -1.73038471008687e-002
1.74180687339159e+000	9.93343938719490e-001    -1.73334817091223e-002
1.74582215292048e+000	9.93317201098735e-001    -1.73631094132084e-002
1.74984668862464e+000	9.93290368766395e-001    -1.73927616590843e-002
1.75388050184174e+000	9.93263444001151e-001    -1.74224211498102e-002
1.75792361395867e+000	9.93236435741720e-001    -1.74520766337664e-002
1.76197604641161e+000	9.93209325254507e-001    -1.74817581204024e-002
1.76603782068614e+000	9.93182126715151e-001    -1.75114401538837e-002
1.77010895831740e+000	9.93154839282640e-001    -1.75411215637926e-002
1.77418948089014e+000	9.93127462916710e-001    -1.75708019465967e-002
1.77827941003890e+000	9.93099976822253e-001    -1.76005283663257e-002
1.78237876744807e+000	9.93072415641811e-001    -1.76302275962860e-002
1.78648757485203e+000	9.93044753550446e-001    -1.76599420847619e-002
1.79060585403527e+000	9.93016998782644e-001    -1.76896695105202e-002
1.79473362683250e+000	9.92989150002070e-001    -1.77193986698926e-002
1.79887091512876e+000	9.92961210518073e-001    -1.77491322410307e-002
1.80301774085955e+000	9.92933181543499e-001    -1.77788613456196e-002
1.80717412601090e+000	9.92905053160080e-001    -1.78086049865026e-002
1.81134009261958e+000	9.92876822837076e-001    -1.78383699354501e-002
1.81551566277311e+000	9.92848511218810e-001    -1.78681177646241e-002
1.81970085860996e+000	9.92820096381977e-001    -1.78978847944080e-002
1.82389570231961e+000	9.92791586553846e-001    -1.79276592445792e-002
1.82810021614272e+000	9.92762989207893e-001    -1.79574189338812e-002
1.83231442237119e+000	9.92734296863443e-001    -1.79871851699735e-002
1.83653834334832e+000	9.92705508254114e-001    -1.80169562713189e-002
1.84077200146893e+000	9.92676623370716e-001    -1.80467317730655e-002
1.84501541917945e+000	9.92647636309982e-001    -1.80765248745993e-002
1.84926861897805e+000	9.92618565921525e-001    -1.81062953817983e-002
1.85353162341479e+000	9.92589396283824e-001    -1.81360757455420e-002
1.85780445509167e+000	9.92560120669724e-001    -1.81658782615993e-002
1.86208713666284e+000	9.92530761322760e-001    -1.81956564510789e-002
1.86637969083464e+000	9.92501299309903e-001    -1.82254494767877e-002
1.87068214036577e+000	9.92471739700788e-001    -1.82552424024221e-002
1.87499450806739e+000	9.92442089210302e-001    -1.82850317036855e-002
1.87931681680324e+000	9.92412342829599e-001    -1.83148119526555e-002
1.88364908948977e+000	9.92382497998987e-001    -1.83445995553312e-002
1.88799134909627e+000	9.92352550023074e-001    -1.83743991553628e-002
1.89234361864495e+000	9.92322508712532e-001    -1.84041907473370e-002
1.89670592121112e+000	9.92292372369703e-001    -1.84339722244744e-002
1.90107827992327e+000	9.92262134566598e-001    -1.84637659136666e-002
1.90546071796322e+000	9.92231799198990e-001    -1.84935556844385e-002
1.90985325856621e+000	9.92201368844803e-001    -1.85233339012746e-002
1.91425592502106e+000	9.92170840480713e-001    -1.85531165279795e-002
1.91866874067026e+000	9.92140217185246e-001    -1.85828866484598e-002
1.92309172891013e+000	9.92109497216672e-001    -1.86126518108115e-002
